 ****** HSPICE -- R-2020.12 linux64 (Nov 23 2020 6727817) ******                
  Copyright (c) 1986 - 2025 by Synopsys, Inc. All Rights Reserved.              
  This software and the associated documentation are proprietary
  to Synopsys, Inc. This software may only be used in accordance
  with the terms and conditions of a written license agreement with
  Synopsys, Inc. All other use, reproduction, or distribution of
  this software is strictly prohibited.
  Input File: inv.sp                                                            
  Command line options: /cad/synopsys/hspice/2020.12/hspice/linux64/hspice -i inv.sp -o inv.lis
  Start time: Wed Sep 17 16:39:36 2025
 lic:  
 lic: FLEXlm: SDK_12.9 
 lic: USER:   u112511037           HOSTNAME: wimlserver1 
 lic: HOSTID: "9c8e9962ad68"       PID:      56623 
 lic: Using FLEXlm license file: 
 lic: 26585@lshc 
 lic: Checkout 1 hspice 
 lic: License/Maintenance for hspice will expire on 14-jun-2027/2025.06 
 lic: 527(in_use)/1235(total) FLOATING license(s) on SERVER 26585@lshc 
 lic:   
  **info**  the obsolete option acout is ignored
  **warning** (inv.sp:56) runlvl smaller than 5, reset to 5 when accurate turned on
  **info**  the obsolete option acout is ignored

 **warning**  runlvl smaller than 5, reset to 5 when accurate turned on
1****** HSPICE -- R-2020.12 linux64 (Nov 23 2020 6727817) ******                
 ******  
 * two stage op 2023 yu-te liao project student *

 ****** circuit name directory
 circuit number to circuit name directory
   number circuitname                     definition         multiplier
        0 main circuit
        1 x1.                             two_stage_amp      1.00 
 

  
      
 **info** set option symb=1 internally to help for convergence.
 *****************************************************************
 ******  option summary
 ******
 runlvl  = 5         bypass  = 2.0000    
  Opening plot unit= 15
 file=inv.pa0

 **info** dc convergence successful at Newton-Raphson method 
 ******  
 * two stage op 2023 yu-te liao project student *

 ****** operating point information tnom=  25.000 temp=  27.000 ******
 ****** operating point status is all       simulation time is     0.     
    node    =voltage      node    =voltage      node    =voltage

 +0:vbias   = 481.8417m 0:vcmi    = 900.0000m 0:vdd     =   1.8000 
 +0:vi+     = 900.0000m 0:vi-     = 900.0000m 0:vid     =   0.     
 +0:vout    =   1.2182  0:vss     =   0.      1:n1      =   1.2120 
 +1:n2      =   1.2120  1:n3      = 346.9249m


 **** voltage sources

 subckt                                              
 element  0:v1       0:v2       0:vcm      0:vdm     
  volts      1.8000     0.       900.0000m    0.     
  current  -73.6649u   73.6649u    0.         0.     
  power    132.5968u    0.         0.         0.     

     total voltage source power dissipation=  132.5968u       watts



 **** current sources

 subckt             
 element  0:i1      
  volts      1.3182 
  current    1.0000u
  power     -1.3182u


     total current source power dissipation=  -1.3182u       watts

 **** voltage-controlled voltage sources


 subckt                        
 element  0:ein+     0:ein-    
  volts      0.         0.     
  current    0.         0.     





 **** mosfets


 subckt   x1         x1         x1         x1         x1         x1        
 element  1:m1       1:m2       1:m3       1:m4       1:m5       1:mbias   
 model    0:n_18.1   0:n_18.1   0:p_18.1   0:p_18.1   0:n_18.1   0:n_18.1  
 region   Saturation Saturation Saturation Saturation Saturation Saturation
  id         5.9058u    5.9058u   -5.9058u   -5.9058u   11.8116u  999.9990n
  ibs     -247.2266a -247.2266a  9.750e-22  9.750e-22 -3.052e-21 -5.049e-22
  ibd     -863.7155a -863.7155a  308.0001a  308.0001a -501.1055a  -81.8793a
  vgs      553.0751m  553.0751m -587.9660m -587.9660m  481.8417m  481.8417m
  vds      865.1092m  865.1092m -587.9660m -587.9660m  346.9249m  481.8417m
  vbs     -346.9249m -346.9249m    0.         0.         0.         0.     
  vth      405.8738m  405.8738m -519.0915m -519.0915m  338.6126m  403.8153m
  vdsat    147.8051m  147.8051m -114.0163m -114.0163m  139.2972m  104.4517m
  vod      147.2013m  147.2013m  -68.8745m  -68.8745m  143.2291m   78.0263m
  beta     520.5709u  520.5709u    1.2092m    1.2092m    1.1570m  212.4366u
  gam eff  516.3696m  516.3696m  557.0846m  557.0846m  507.4460m  507.4460m
  gm        66.1784u   66.1784u   89.5827u   89.5827u  135.5162u   15.4917u
  gds      561.0830n  561.0830n  787.7037n  787.7037n    1.2322u  182.3671n
  gmb       11.0399u   11.0399u   25.9645u   25.9645u   27.0997u    3.1515u
  cdtot      6.6042f    6.6042f    7.9407f    7.9407f   18.0621f    1.0868f
  cgtot    102.1365f  102.1365f   17.5937f   17.5937f  232.1541f    4.6525f
  cstot    105.3661f  105.3661f   22.3909f   22.3909f  243.4950f    5.3172f
  cbtot     32.7869f   32.7869f   17.0273f   17.0273f   85.4010f    2.9024f
  cgs       92.4824f   92.4824f   13.6398f   13.6398f  208.8792f    3.9869f
  cgd        1.6284f    1.6284f    2.3700f    2.3700f    4.3563f  250.0837a



 subckt   x1         x1        
 element  1:m6       1:m7      
 model    0:p_18.1   0:n_18.1  
 region   Saturation Saturation
  id       -60.8533u   60.8533u
  ibs      1.260e-20 -1.476e-20
  ibd        1.8293f   -7.7728f
  vgs     -587.9660m  481.8417m
  vds     -581.7531m    1.2182 
  vbs        0.         0.     
  vth     -545.8833m  333.7633m
  vdsat   -115.4968m  142.8416m
  vod      -42.0827m  148.0784m
  beta      14.5006m    5.4487m
  gam eff  557.0846m  507.4460m
  gm       966.2954u  679.0406u
  gds       19.8290u    4.7859u
  gmb      287.1368u  133.2859u
  cdtot     39.5914f   68.0899f
  cgtot     54.7888f    1.0891p
  cstot     78.3234f    1.1451p
  cbtot     76.1997f  389.5078f
  cgs       37.8738f  978.5386f
  cgd       11.2994f   18.1812f



 ******
 * two stage op 2023 yu-te liao project student *

 ****** ac analysis tnom=  25.000 temp=  27.000 ******
 unit_gain_bandwidth=  43.4851x
 phase_margine=  60.4841 
 dc_gain=  65.6555     at=   1.0000 
             from=   1.0000     to=1000.0000x

          ***** job concluded
 ******  
 * two stage op 2023 yu-te liao project student *

 ****** job statistics summary tnom=  25.000 temp=  27.000 ******
  
 ******  Machine Information  ******
 CPU:
 model name	: Intel(R) Xeon(R) CPU E5-2697 v2 @ 2.70GHz
 cpu MHz	: 1200.000
  
 OS:
 Linux version 3.10.0-1160.el7.x86_64 (mockbuild@kbuilder.bsys.centos.org) (gcc version 4.8.5 20150623 (Red Hat 4.8.5-44) (GCC) ) #1 SMP Mon Oct 19 16:18:59 UTC 2020


  ******  HSPICE Threads Information  ******

  Command Line Threads Count :     1
  Available CPU Count        :    48
  Actual Threads Count       :     1


  ******  Circuit Statistics  ******
  # nodes       =      28 # elements   =      17
  # resistors   =       0 # capacitors =       2 # inductors   =       0
  # mutual_inds =       0 # vccs       =       0 # vcvs        =       2
  # cccs        =       0 # ccvs       =       0 # volt_srcs   =       4
  # curr_srcs   =       1 # diodes     =       0 # bjts        =       0
  # jfets       =       0 # mosfets    =       8 # U elements  =       0
  # T elements  =       0 # W elements =       0 # B elements  =       0
  # S elements  =       0 # P elements =       0 # va device   =       0
  # vector_srcs =       0 # N elements =       0


  ******  Runtime Statistics (seconds)  ******

  analysis           time    # points   tot. iter  conv.iter
  op point           0.00           1          13
  ac analysis        0.16        9001        9001
  readin             0.02
  errchk             0.01
  setup              0.00
  output             0.00


           peak memory used        465.55 megabytes
           total cpu time            0.20 seconds
           total elapsed time        3.80 seconds
           job started at     16:39:36 09/17/2025
           job ended   at     16:39:39 09/17/2025
           job total runtime         3.80 seconds


 lic: Release hspice token(s) 
 lic: total license checkout elapse time:        3.59(s)
